! Example of a correctly formatted S4P four port Touchstone S-parameter data file
!
!
! # GHZ S MA R 50
! freq1 magS11  angS11  magS12  angS12  magS13  angS13  magS14  angS14  
!       magS21  angS21  magS22  angS22  magS23  angS23  magS24  angS24  
!	magS31  angS31  magS32  angS32  magS33  angS33  magS34  angS34 
!	magS41  angS41  magS42  angS42  magS43  angS43  magS44  angS44   
!
! freq2 magS11  angS11  magS12  angS12  magS13  angS13  magS14  angS14  
!       magS21  angS21  magS22  angS22  magS23  angS23  magS24  angS24  
!	magS31  angS31  magS32  angS32  magS33  angS33  magS34  angS34 
!	magS41  angS41  magS42  angS42  magS43  angS43  magS44  angS44   
!
# GHZ S MA R 50

1.0     0.560   24.0    0.002   54.0    0.003   34.0    0.004   12.0
       23.450   33.0    0.780   44.0    0.006   10.0    0.012   20.0
       12.350   87.0    8.950   14.0    0.540   31.0    0.011    1.0
       15.675    3.0   12.850   55.0   21.060   30.0    0.320   10.0

1.1     0.550   24.0    0.003   54.0    0.004   34.0    0.003   12.0
       23.500   33.0    0.730   44.0    0.007   10.0    0.014   20.0
       12.370   87.0    8.990   14.0    0.530   31.0    0.010    1.0
       15.685    3.0   12.950   55.0   21.360   30.0    0.310   10.0

1.2     0.542   24.0    0.005   54.0    0.005   34.0    0.003   12.0
       23.650   33.0    0.715   44.0    0.009   10.0    0.016   20.0
       12.380   87.0    9.340   14.0    0.525   31.0    0.011    1.0
       15.735    3.0   13.230   55.0   21.380   30.0    0.306   10.0

1.3     0.534   24.0    0.006   54.0    0.008   34.0    0.002   12.0
       23.720   33.0    0.717   44.0    0.008   10.0    0.015   20.0
       12.440   87.0    9.360   14.0    0.512   31.0    0.011    1.0
       15.785    3.0   13.360   55.0   21.390   30.0    0.302   10.0

1.4     0.532   24.0    0.008   54.0    0.011   34.0    0.001   12.0
       23.790   33.0    0.721   44.0    0.006   10.0    0.013   20.0
       12.490   87.0    9.390   14.0    0.507   31.0    0.012    1.0
       15.830    3.0   13.430   55.0   21.420   30.0    0.295   10.0

1.5     0.529   24.0    0.009   54.0    0.013   34.0    0.001   12.0
       23.830   33.0    0.727   44.0    0.007   10.0    0.015   20.0
       12.545   87.0    9.425   14.0    0.502   31.0    0.014    1.0
       15.850    3.0   13.415   55.0   21.405   30.0    0.293   10.0
