! Example of a correctly formatted S5P five port Touchstone S-parameter data file
!
!
! # GHZ S MA R 50
! freq1 magS11  angS11  magS12  angS12  magS13  angS13  magS14  angS14  
!       magS15  angS15  magS21  angS21  magS22  angS22  magS23  angS23  
!       magS24  angS24  magS25  angS25  magS31  angS31  magS32  angS32  
!       magS33  angS33  magS34  angS34  magS35  angS35  magS41  angS41  
!       magS42  angS42  magS43  angS43  magS44  angS44  magS45  angS45  
!       magS51  angS51  magS52  angS52  magS53  angS53  magS54  angS54  
!       magS55  angS55
!
! freq2 magS11  angS11  magS12  angS12  magS13  angS13  magS14  angS14  
!       magS15  angS15  magS21  angS21  magS22  angS22  magS23  angS23  
!       magS24  angS24  magS25  angS25  magS31  angS31  magS32  angS32  
!       magS33  angS33  magS34  angS34  magS35  angS35  magS41  angS41  
!       magS42  angS42  magS43  angS43  magS44  angS44  magS45  angS45  
!       magS51  angS51  magS52  angS52  magS53  angS53  magS54  angS54  
!       magS55  angS55
!
!
!
# GHZ S MA R 50

1.0     0.540   30.0    0.010   20.0    0.012   18.0    0.006   6.0
        0.020    1.0   10.250   45.0    0.650   40.0    0.005   4.0
        0.003   60.0    0.030   32.0   12.000   35.0   34.200  39.0
        0.920   54.0    0.008    8.0    0.021   12.0    6.000  42.0
       12.000   34.0    8.000   16.0    0.780   80.0    0.032  87.0
       15.400   25.0    7.500    5.0   24.000   30.0   16.700  90.0
        0.765   65.0

1.1     0.530   30.0    0.012   20.0    0.014   18.0    0.008   6.0
        0.024    1.0   10.300   45.0    0.700   40.0    0.009   4.0
        0.006   60.0    0.024   32.0   12.500   35.0   34.800  39.0
        0.970   54.0    0.009    8.0    0.020   12.0    6.400  42.0
       12.300   34.0    8.600   16.0    0.700   80.0    0.036  87.0
       15.600   25.0    7.800    5.0   24.300   30.0   16.900  90.0
        0.795   65.0

1.2     0.525   30.0    0.016   20.0    0.018   18.0    0.009   6.0
        0.027    1.0   10.350   45.0    0.720   40.0    0.012   4.0
        0.008   60.0    0.027   32.0   12.800   35.0   34.900  39.0
        0.990   54.0    0.006    8.0    0.015   12.0    6.300  42.0
       12.200   34.0    8.800   16.0    0.730   80.0    0.038  87.0
       15.900   25.0    7.600    5.0   24.350   30.0   16.950  90.0
        0.825   65.0

1.3     0.523   30.0    0.014   20.0    0.016   18.0    0.007   6.0
        0.029    1.0   10.540   45.0    0.735   40.0    0.015   4.0
        0.012   60.0    0.029   32.0   12.950   35.0   34.950  39.0
        0.965   54.0    0.010    8.0    0.013   12.0    6.350  42.0
       12.230   34.0    8.850   16.0    0.750   80.0    0.043  87.0
       15.950   25.0    7.620    5.0   24.370   30.0   16.970  90.0
        0.855   65.0

1.4     0.519   30.0    0.012   20.0    0.015   18.0    0.008   6.0
        0.033    1.0   10.450   45.0    0.739   40.0    0.017   4.0
        0.016   60.0    0.027   32.0   12.930   35.0   34.910  39.0
        0.985   54.0    0.012    8.0    0.015   12.0    6.380  42.0
       12.290   34.0    8.900   16.0    0.790   80.0    0.045  87.0
       15.930   25.0    7.640    5.0   24.340   30.0   17.010  90.0
        0.835   65.0

1.5     0.515   30.0    0.010   20.0    0.013   18.0    0.006   6.0
        0.036    1.0   10.490   45.0    0.743   40.0    0.014   4.0
        0.013   60.0    0.029   32.0   12.920   35.0   34.900  39.0
        0.980   54.0    0.014    8.0    0.013   12.0    6.370  42.0
       12.295   34.0    8.950   16.0    0.795   80.0    0.050  87.0
       15.950   25.0    7.680    5.0   24.380   30.0   17.100  90.0
        0.840   65.0

