! Example of a correctly formatted S6P six port Touchstone S-parameter data file
!
!
! # GHZ S MA R 50
!
! freq1 magS11  angS11  magS12  angS12  magS13  angS13  magS14  angS14  
!       magS15  angS15  magS16  angS16  magS21  angS21  magS22  angS22  
!       magS23  angS23  magS24  angS24  magS25  angS25  magS26  angS26
!       magS31  angS31  magS32  angS32  magS33  angS33  magS34  angS34  
!       magS35  angS35  magS36  angS36  magS41  angS41  magS42  angS42  
!       magS43  angS43  magS44  angS44  magS45  angS45  magS46  angS46
!       magS51  angS51  magS52  angS52  magS53  angS53  magS54  angS54  
!       magS55  angS55  magS56  angS56  magS61  angS61  magS62  angS62  
!       magS63  angS63  magS64  angS64  magS65  angS65  magS66  angS66
!
! freq2 magS11  angS11  magS12  angS12  magS13  angS13  magS14  angS14  
!       magS15  angS15  magS16  angS16  magS21  angS21  magS22  angS22  
!       magS23  angS23  magS24  angS24  magS25  angS25  magS26  angS26
!       magS31  angS31  magS32  angS32  magS33  angS33  magS34  angS34  
!       magS35  angS35  magS36  angS36  magS41  angS41  magS42  angS42  
!       magS43  angS43  magS44  angS44  magS45  angS45  magS46  angS46
!       magS51  angS51  magS52  angS52  magS53  angS53  magS54  angS54  
!       magS55  angS55  magS56  angS56  magS61  angS61  magS62  angS62  
!       magS63  angS63  magS64  angS64  magS65  angS65  magS66  angS66
!

# GHZ S MA R 50

1.0     0.670   30.0    0.020   10.0    0.010   23.0    0.015   16.0
        0.023   16.0    0.017    8.0   20.000   25.0    0.450   34.0
        0.010   15.5    0.006   16.5    0.001    3.0    0.002    5.0
       15.100   12.0    8.500    9.0    0.875   60.0    0.090   12.0
        0.086   33.0    0.105   11.0   12.500   15.0    9.350   24.5
       23.450   43.5    0.540   54.0    0.230   46.0    0.187   47.0
       17.450    4.0    2.560    5.0   32.670   34.0    6.780    6.0
        0.345    0.5    0.030    8.0   19.780   89.0   14.500   75.0
        4.670    3.0   43.120   12.0    1.270   30.0    0.760   37.0

1.1     0.660   30.0    0.025   10.0    0.012   23.0    0.013   16.0
        0.021   16.0    0.019    8.0   20.400   25.0    0.440   34.0
        0.009   15.5    0.004   16.5    0.003    3.0    0.004    5.0
       15.400   12.0    8.760    9.0    0.865   60.0    0.093   12.0
        0.084   33.0    0.108   11.0   12.530   15.0    9.380   24.5
       23.560   43.5    0.570   54.0    0.260   46.0    0.190   47.0
       17.520    4.0    2.400    5.0   32.620   34.0    6.750    6.0
        0.352    0.5    0.034    8.0   19.770   89.0   14.620   75.0
        4.690    3.0   43.150   12.0    1.290   30.0    0.740   37.0

1.2     0.650   30.0    0.027   10.0    0.013   23.0    0.012   16.0
        0.020   16.0    0.021    8.0   20.600   25.0    0.470   34.0
        0.008   15.5    0.003   16.5    0.002    3.0    0.002    5.0
       15.600   12.0    8.780    9.0    0.868   60.0    0.095   12.0
        0.087   33.0    0.113   11.0   12.600   15.0    9.430   24.5
       23.590   43.5    0.590   54.0    0.270   46.0    0.210   47.0
       17.550    4.0    2.430    5.0   32.650   34.0    6.780    6.0
        0.355    0.5    0.036    8.0   19.790   89.0   14.640   75.0
        4.720    3.0   43.190   12.0    1.310   30.0    0.760   37.0

1.3     0.645   30.0    0.026   10.0    0.012   23.0    0.011   16.0
        0.022   16.0    0.022    8.0   20.650   25.0    0.485   34.0
        0.009   15.5    0.004   16.5    0.001    3.0    0.003    5.0
       15.630   12.0    8.760    9.0    0.863   60.0    0.093   12.0
        0.086   33.0    0.112   11.0   12.610   15.0    9.440   24.5
       23.580   43.5    0.585   54.0    0.255   46.0    0.232   47.0
       17.540    4.0    2.450    5.0   32.660   34.0    6.760    6.0
        0.365    0.5    0.042    8.0   19.810   89.0   14.680   75.0
        4.740    3.0   43.210   12.0    1.320   30.0    0.770   37.0

1.4     0.642   30.0    0.024   10.0    0.011   23.0    0.009   16.0
        0.025   16.0    0.020    8.0   20.680   25.0    0.493   34.0
        0.007   15.5    0.003   16.5    0.003    3.0    0.001    5.0
       15.620   12.0    8.810    9.0    0.869   60.0    0.091   12.0
        0.088   33.0    0.114   11.0   12.605   15.0    9.435   24.5
       23.575   43.5    0.580   54.0    0.265   46.0    0.237   47.0
       17.580    4.0    2.490    5.0   32.720   34.0    6.900    6.0
        0.380    0.5    0.045    8.0   19.850   89.0   14.720   75.0
        4.770    3.0   43.280   12.0    1.350   30.0    0.790   37.0

1.5     0.638   30.0    0.025   10.0    0.012   23.0    0.008   16.0
        0.026   16.0    0.021    8.0   20.720   25.0    0.502   34.0
        0.006   15.5    0.002   16.5    0.001    3.0    0.002    5.0
       15.640   12.0    8.860    9.0    0.877   60.0    0.088   12.0
        0.086   33.0    0.118   11.0   12.645   15.0    9.465   24.5
       23.595   43.5    0.620   54.0    0.285   46.0    0.242   47.0
       17.640    4.0    2.530    5.0   32.780   34.0    6.920    6.0
        0.410    0.5    0.047    8.0   19.870   89.0   14.690   75.0
        4.830    3.0   43.350   12.0    1.380   30.0    0.850   37.0
